! Copyright - 2018 NXP B.V.
! 11/29/2018
! Rev 0
! MRF101AN/BN S-Parameters
! Vdd=50V, IDQ=1000mA
# hz S ma R 50
! Comment
! freq  magS11  angS11  magS21  angS21  magS12  angS12  magS22  angS22  
!     
          30000000       0.564235448        -99.7043106         53.2145653          102.23512      0.00547553021         28.7605559        0.416624089        -97.7164457
          35000000       0.572121868        -105.443103         46.8439683         98.2792741      0.00622285213         18.0655717        0.416214496        -102.203608
          40000000       0.585440496        -109.745584         41.8694627         95.6498936       0.0059789161         15.4206392         0.42123798        -105.432068
          45000000       0.602880183        -114.259896         37.7230051         92.4532309       0.0055703589         18.0751957        0.429487193        -108.314909
          50000000       0.617806754        -118.033128         34.4329288         89.7988176      0.00548144313         16.3523685        0.441621481        -111.246004
          55000000       0.635242862         -121.42904         31.4737456         87.0362211      0.00517187889         11.8483962        0.453136409        -113.769749
          60000000       0.649783537        -124.431316         28.9449598         84.1522724      0.00554483512         10.4338574        0.465610804        -116.009355
          65000000       0.663806937        -127.292073         26.7811474         81.9864477      0.00552084646         9.50802633        0.482047678        -117.969506
          70000000       0.680818025        -129.767305         25.0468173         79.6586401      0.00489253536         17.8450626        0.497333425        -119.753686
          75000000       0.695233556        -132.103899         23.4134173         77.4921418      0.00499087522         16.6526405        0.513068252        -121.706031
          80000000       0.707933257        -134.228109         21.9015509         75.2349561      0.00507908645         10.2165529        0.528749818         -123.53599
          85000000       0.717620012         -136.09623         20.5628525         73.2757081      0.00462563068         22.0763273        0.543245081        -124.888421
          90000000       0.732121074        -138.025942         19.3618935         71.0421647      0.00466301771         7.41033581        0.556924493        -126.517186
          95000000       0.745286048        -139.787361         18.3450844         69.0489132      0.00368545406         9.65529451        0.573088424        -128.052081
         100000000       0.757395959        -141.428512         17.3303289         67.0233237      0.00414947576          31.500418        0.588682593        -129.402669
         105000000       0.765866139        -143.074629          16.351207         65.1111734       0.0038861957         34.8587465        0.603377876        -130.722855
         110000000       0.772124858        -144.377874         15.4090454         63.3701713      0.00367626153         37.3260562        0.616546272        -131.982999
         115000000       0.781584673        -145.881931         14.6474245         61.7149429      0.00381064234         16.9254888        0.627776956        -133.603524
         120000000       0.788247984        -147.339592         13.8905564         59.5443861      0.00302906965         25.5071659        0.639461719          -134.7672
         125000000       0.798181983        -148.669791         13.2394356         57.8415991      0.00348748378         27.1541287        0.652480922        -135.937276
         130000000       0.806424803        -149.945848         12.6514717         56.0295784      0.00249937913         21.8287262         0.66583981        -137.317245
         135000000       0.812931779        -150.786693         11.9434979         54.9102002      0.00329200424         55.0092322         0.67507194        -138.076223
         140000000       0.819483486        -152.076876         11.4194984         52.9408183       0.0032119212         48.9763913        0.686261045        -139.612071
         145000000       0.827876982        -153.205174         10.9775692         51.4785846      0.00262941158         63.2978776        0.699552004        -140.649472
         150000000        0.84192126        -154.268585         10.5623724         49.7091965      0.00340138425         71.9159025        0.710169769         -141.76699
         155000000       0.838704967        -155.229896         9.99456038         48.3062575      0.00234674651         66.8609505        0.716586393        -142.691562
         160000000       0.846421807        -156.305438         9.57163246         46.7005528      0.00357805799         65.4745408        0.727703273        -143.783754
         165000000       0.855388974        -157.102536         9.20509966         45.3879994      0.00420340334         71.1122574        0.738540885        -144.826806
         170000000        0.85367105        -157.779793            8.74361         44.3716804      0.00353717104         74.5141394        0.746179213        -145.705564
         175000000       0.863760105        -158.461167         8.45685901         43.2104181       0.0036854147         84.0004281        0.753092286        -146.715508
         180000000       0.868029605        -159.326753         8.10279509         41.8630953      0.00494320981         84.2770813        0.762833379        -147.655879
         185000000       0.875320142        -160.190773         7.80531462         40.3733787      0.00456799927         80.2941197        0.769433925        -148.623798
         190000000        0.87543725        -161.120032         7.47888958         39.2349011       0.0041994678         76.9072461        0.776302223         -149.49939
         195000000       0.879230586        -161.588193         7.21138209         38.0087615      0.00546695433         89.2405856        0.783668681        -150.380356
         200000000       0.882402437        -162.354718         6.92217571           36.96523      0.00498472405         86.2000122        0.789970347        -151.141535
         205000000       0.885257439        -163.242338         6.70241548         35.8248618      0.00528327722         86.1671638         0.79745548        -152.030945
         210000000       0.891916747        -164.008531         6.47664488         34.6480904      0.00721736459         92.2057605         0.80670243        -152.853203
         215000000       0.892078918        -164.710357         6.20340686          33.371123      0.00670623233         102.459456        0.810952848        -153.678282
         220000000       0.896645527        -165.277173         6.00721598         32.5553558      0.00756526362         88.0538507        0.816868439        -154.436942
         225000000       0.894265836        -166.130627         5.78625316         31.3265574      0.00726743352         85.2169982        0.822183571        -155.245458
         230000000       0.900232904        -166.713732         5.58888611         30.4491326      0.00867579531         98.6920421        0.825341514        -155.910526
         235000000       0.903613428        -167.500903         5.42483951         29.4216528      0.00814009013         93.2983536        0.832441205        -156.742201
         240000000       0.910436258        -168.028844         5.24613965         28.4634953      0.00879188536         88.6524385        0.835007071        -157.482463
         245000000        0.91059474        -168.661455         5.06769279         27.4596282      0.00910469967         92.3887047        0.840252372        -158.280356
         250000000        0.91266671        -169.568012         4.91337163         26.2245308      0.00918068483          94.823642        0.844435242        -158.961982
         255000000       0.913467383        -169.924715         4.73196692         25.6304018      0.00942815785         94.4611086        0.848685251        -159.437559
         260000000       0.923648175        -170.582932         4.62270055         24.4749283      0.00961692367         92.2609433         0.85143983        -160.164384
         265000000       0.922224275        -171.214761         4.45104163          23.568461       0.0111290323         93.6201109         0.85505114        -160.879898
         270000000       0.923897873        -171.627587         4.31919996         22.9709283       0.0106528671         91.9887494        0.859035052        -161.353632
         275000000       0.926360808        -172.407396         4.20409299         21.5479943       0.0105708919          96.127749        0.863546737        -162.125605
         280000000       0.924469376        -172.464871         4.06180336         21.2016585       0.0113108711         92.9115316        0.866747626        -162.768354
         285000000       0.928089722        -173.342013         3.95911575         20.2436697       0.0119161085         87.9331219        0.869607136        -163.445764
         290000000       0.930443697        -173.778363         3.84413111         19.3347542       0.0121740422         93.1255054        0.872331502        -163.998281
         295000000       0.930650761        -174.341711         3.72749849         18.5839288       0.0118573316         92.6022618        0.877144994        -164.776825
         300000000       0.929691345        -174.760629         3.61452865         17.7354366       0.0134356276         94.6647239        0.878109124         -165.38559
